T6534 000:004.567   SEGGER J-Link V7.96h Log File
T6534 000:004.701   DLL Compiled: May 15 2024 15:33:59
T6534 000:004.730   Logging started @ 2024-12-17 07:36
T6534 000:004.735   Process: D:\Arm\Keil_v5\UV4\UV4.exe
T6534 000:004.742 - 4.739ms
T6534 000:004.750 JLINK_SetWarnOutHandler(...)
T6534 000:004.754 - 0.005ms
T6534 000:004.762 JLINK_OpenEx(...)
T6534 000:006.652   Firmware: J-Link V9 compiled May  7 2021 16:26:12
T6534 000:008.027   Firmware: J-Link V9 compiled May  7 2021 16:26:12
T6534 000:008.155   Decompressing FW timestamp took 111 us
T6534 000:015.951   Hardware: V9.70
T6534 000:015.963   S/N: 69706099
T6534 000:015.969   OEM: SEGGER
T6534 000:015.975   Feature(s): RDI, FlashBP, FlashDL, JFlash, GDB
T6534 000:017.242   Bootloader: (Could not read)
T6534 000:018.782   TELNET listener socket opened on port 19021
T6534 000:018.909   WEBSRV WEBSRV_Init(): Starting webserver thread(s)
T6534 000:019.002   WEBSRV Webserver running on local port 19080
T6534 000:019.102   Looking for J-Link GUI Server exe at: D:\Arm\Keil_v5\ARM\Segger\JLinkGUIServer.exe
T6534 000:019.203   Looking for J-Link GUI Server exe at: C:\Program Files (x86)\SEGGER\JLink\JLinkGUIServer.exe
T6534 000:019.249   Forking J-Link GUI Server: C:\Program Files (x86)\SEGGER\JLink\JLinkGUIServer.exe
T6534 000:064.537   J-Link GUI Server info: "J-Link GUI server V7.66a "
T6534 000:064.650   J-Link GUI Server: Connection breakdown.
T6534 000:064.749 - 59.969ms returns "O.K."
T6534 000:064.769 JLINK_GetEmuCaps()
T6534 000:064.779 - 0.008ms returns 0xB9FF7BBF
T6534 000:064.800 JLINK_TIF_GetAvailable(...)
T6534 000:065.349 - 0.551ms
T6534 000:065.361 JLINK_SetErrorOutHandler(...)
T6534 000:065.365 - 0.004ms
T6534 000:065.385 JLINK_ExecCommand("ProjectFile = "D:\project\STM32F103_CDC_2_USB_OK_PIC_OK_2(1)\USER\JLinkSettings.ini"", ...). 
T6534 000:077.557 - 12.172ms returns 0x00
T6534 000:079.911 JLINK_ExecCommand("Device = STM32F103C8", ...). 
T6534 000:082.897   Device "STM32F103C8" selected.
T6534 000:083.256 - 3.319ms returns 0x00
T6534 000:083.271 JLINK_ExecCommand("DisableConnectionTimeout", ...). 
T6534 000:083.278 - 0.001ms returns 0x01
T6534 000:083.284 JLINK_GetHardwareVersion()
T6534 000:083.288 - 0.004ms returns 97000
T6534 000:083.293 JLINK_GetDLLVersion()
T6534 000:083.297 - 0.004ms returns 79608
T6534 000:083.302 JLINK_GetOEMString(...)
T6534 000:083.307 JLINK_GetFirmwareString(...)
T6534 000:083.311 - 0.004ms
T6534 000:089.797 JLINK_GetDLLVersion()
T6534 000:089.822 - 0.024ms returns 79608
T6534 000:089.828 JLINK_GetCompileDateTime()
T6534 000:089.832 - 0.004ms
T6534 000:091.412 JLINK_GetFirmwareString(...)
T6534 000:091.428 - 0.015ms
T6534 000:092.981 JLINK_GetHardwareVersion()
T6534 000:092.994 - 0.013ms returns 97000
T6534 000:096.342 JLINK_GetSN()
T6534 000:096.371 - 0.029ms returns 69706099
T6534 000:102.665 JLINK_GetOEMString(...)
T6534 000:107.067 JLINK_TIF_Select(JLINKARM_TIF_SWD)
T6534 000:108.557 - 1.490ms returns 0x00
T6534 000:108.576 JLINK_HasError()
T6534 000:108.590 JLINK_SetSpeed(5000)
T6534 000:108.916 - 0.326ms
T6534 000:108.922 JLINK_GetId()
T6534 000:113.946   InitTarget() start
T6534 000:113.970    J-Link Script File: Executing InitTarget()
T6534 000:116.095   SWD selected. Executing JTAG -> SWD switching sequence.
T6534 000:120.821   DAP initialized successfully.
T6534 000:131.413   InitTarget() end - Took 15.4ms
T6534 000:134.008   Found SW-DP with ID 0x1BA01477
T6534 000:138.920   DPIDR: 0x1BA01477
T6534 000:141.152   CoreSight SoC-400 or earlier
T6534 000:143.420   Scanning AP map to find all available APs
T6534 000:146.184   AP[1]: Stopped AP scan as end of AP map has been reached
T6534 000:147.895   AP[0]: AHB-AP (IDR: 0x14770011)
T6534 000:149.609   Iterating through AP map to find AHB-AP to use
T6534 000:152.780   AP[0]: Core found
T6534 000:154.403   AP[0]: AHB-AP ROM base: 0xE00FF000
T6534 000:158.453   CPUID register: 0x411FC231. Implementer code: 0x41 (ARM)
T6534 000:160.177   Found Cortex-M3 r1p1, Little endian.
T6534 000:161.040   -- Max. mem block: 0x00010E60
T6534 000:161.797   CPU_ReadMem(4 bytes @ 0xE000EDF0)
T6534 000:162.282   CPU_ReadMem(4 bytes @ 0xE0002000)
T6534 000:164.880   FPUnit: 6 code (BP) slots and 2 literal slots
T6534 000:164.900   CPU_ReadMem(4 bytes @ 0xE000EDFC)
T6534 000:165.438   CPU_WriteMem(4 bytes @ 0xE000EDFC)
T6534 000:166.023   CPU_ReadMem(4 bytes @ 0xE0001000)
T6534 000:166.513   CPU_WriteMem(4 bytes @ 0xE0001000)
T6534 000:166.994   CPU_ReadMem(4 bytes @ 0xE000ED88)
T6534 000:167.443   CPU_WriteMem(4 bytes @ 0xE000ED88)
T6534 000:168.055   CPU_ReadMem(4 bytes @ 0xE000ED88)
T6534 000:168.685   CPU_WriteMem(4 bytes @ 0xE000ED88)
T6534 000:171.720   CoreSight components:
T6534 000:174.285   ROMTbl[0] @ E00FF000
T6534 000:174.312   CPU_ReadMem(64 bytes @ 0xE00FF000)
T6534 000:175.170   CPU_ReadMem(32 bytes @ 0xE000EFE0)
T6534 000:179.449   [0][0]: E000E000 CID B105E00D PID 001BB000 SCS
T6534 000:179.471   CPU_ReadMem(32 bytes @ 0xE0001FE0)
T6534 000:182.157   [0][1]: E0001000 CID B105E00D PID 001BB002 DWT
T6534 000:182.185   CPU_ReadMem(32 bytes @ 0xE0002FE0)
T6534 000:184.398   [0][2]: E0002000 CID B105E00D PID 000BB003 FPB
T6534 000:184.417   CPU_ReadMem(32 bytes @ 0xE0000FE0)
T6534 000:189.286   [0][3]: E0000000 CID B105E00D PID 001BB001 ITM
T6534 000:189.314   CPU_ReadMem(32 bytes @ 0xE0040FE0)
T6534 000:191.839   [0][4]: E0040000 CID B105900D PID 001BB923 TPIU-Lite
T6534 000:192.280 - 83.357ms returns 0x1BA01477
T6534 000:192.344 JLINK_GetDLLVersion()
T6534 000:192.349 - 0.004ms returns 79608
T6534 000:192.354 JLINK_CORE_GetFound()
T6534 000:192.358 - 0.004ms returns 0x30000FF
T6534 000:192.363 JLINK_GetDebugInfo(0x100 = JLINKARM_ROM_TABLE_ADDR_INDEX)
T6534 000:192.370   Value=0xE00FF000
T6534 000:192.376 - 0.013ms returns 0
T6534 000:194.116 JLINK_GetDebugInfo(0x100 = JLINKARM_ROM_TABLE_ADDR_INDEX)
T6534 000:194.130   Value=0xE00FF000
T6534 000:194.137 - 0.021ms returns 0
T6534 000:194.142 JLINK_GetDebugInfo(0x101 = JLINKARM_DEBUG_INFO_ETM_ADDR_INDEX)
T6534 000:194.146   Value=0x00000000
T6534 000:194.152 - 0.009ms returns 0
T6534 000:194.157 JLINK_ReadMemEx(0xE0041FF0, 0x10 Bytes, Flags = 0x02000004)
T6534 000:194.181   CPU_ReadMem(16 bytes @ 0xE0041FF0)
T6534 000:194.673   Data:  00 00 00 00 00 00 00 00 00 00 00 00 00 00 00 00
T6534 000:194.686 - 0.528ms returns 16 (0x10)
T6534 000:194.693 JLINK_GetDebugInfo(0x102 = JLINKARM_DEBUG_INFO_MTB_ADDR_INDEX)
T6534 000:194.697   Value=0x00000000
T6534 000:194.703 - 0.010ms returns 0
T6534 000:194.708 JLINK_GetDebugInfo(0x103 = JLINKARM_DEBUG_INFO_TPIU_ADDR_INDEX)
T6534 000:194.712   Value=0xE0040000
T6534 000:194.718 - 0.010ms returns 0
T6534 000:194.723 JLINK_GetDebugInfo(0x104 = JLINKARM_DEBUG_INFO_ITM_ADDR_INDEX)
T6534 000:194.727   Value=0xE0000000
T6534 000:194.732 - 0.009ms returns 0
T6534 000:194.737 JLINK_GetDebugInfo(0x105 = JLINKARM_DEBUG_INFO_DWT_ADDR_INDEX)
T6534 000:194.741   Value=0xE0001000
T6534 000:194.747 - 0.009ms returns 0
T6534 000:194.751 JLINK_GetDebugInfo(0x106 = JLINKARM_DEBUG_INFO_FPB_ADDR_INDEX)
T6534 000:194.755   Value=0xE0002000
T6534 000:194.761 - 0.009ms returns 0
T6534 000:194.765 JLINK_GetDebugInfo(0x107 = JLINKARM_DEBUG_INFO_NVIC_ADDR_INDEX)
T6534 000:194.769   Value=0xE000E000
T6534 000:194.775 - 0.009ms returns 0
T6534 000:194.780 JLINK_GetDebugInfo(0x10C = JLINKARM_DEBUG_INFO_DBG_ADDR_INDEX)
T6534 000:194.783   Value=0xE000EDF0
T6534 000:194.789 - 0.009ms returns 0
T6534 000:194.794 JLINK_GetDebugInfo(0x01 = Unknown)
T6534 000:194.798   Value=0x00000000
T6534 000:194.803 - 0.009ms returns 0
T6534 000:194.808 JLINK_ReadMemU32(0xE000ED00, 0x1 Items)
T6534 000:194.816   CPU_ReadMem(4 bytes @ 0xE000ED00)
T6534 000:195.240   Data:  31 C2 1F 41
T6534 000:195.246   Debug reg: CPUID
T6534 000:195.252 - 0.444ms returns 1 (0x1)
T6534 000:195.258 JLINK_GetDebugInfo(0x10F = JLINKARM_DEBUG_INFO_HAS_CORTEX_M_SECURITY_EXT_INDEX)
T6534 000:195.262   Value=0x00000000
T6534 000:195.267 - 0.010ms returns 0
T6534 000:195.273 JLINK_HasError()
T6534 000:195.278 JLINK_SetResetType(JLINKARM_CM3_RESET_TYPE_NORMAL)
T6534 000:195.285 - 0.006ms returns JLINKARM_CM3_RESET_TYPE_NORMAL
T6534 000:195.291 JLINK_Reset()
T6534 000:195.301   CPU is running
T6534 000:195.307   CPU_WriteMem(4 bytes @ 0xE000EDF0)
T6534 000:195.696   CPU is running
T6534 000:195.704   CPU_WriteMem(4 bytes @ 0xE000EDFC)
T6534 000:197.797   Reset: Halt core after reset via DEMCR.VC_CORERESET.
T6534 000:200.164   Reset: Reset device via AIRCR.SYSRESETREQ.
T6534 000:200.180   CPU is running
T6534 000:200.189   CPU_WriteMem(4 bytes @ 0xE000ED0C)
T6534 000:253.868   CPU_ReadMem(4 bytes @ 0xE000EDF0)
T6534 000:254.250   CPU_ReadMem(4 bytes @ 0xE000EDF0)
T6534 000:256.966   CPU_WriteMem(4 bytes @ 0xE000EDFC)
T6534 000:263.280   CPU_ReadMem(4 bytes @ 0xE000EDF0)
T6534 000:266.190   CPU_WriteMem(4 bytes @ 0xE0002000)
T6534 000:266.877   CPU_ReadMem(4 bytes @ 0xE000EDFC)
T6534 000:267.340   CPU_ReadMem(4 bytes @ 0xE0001000)
T6534 000:267.946 - 72.653ms
T6534 000:268.029 JLINK_Halt()
T6534 000:268.040 - 0.010ms returns 0x00
T6534 000:268.046 JLINK_ReadMemU32(0xE000EDF0, 0x1 Items)
T6534 000:268.058   CPU_ReadMem(4 bytes @ 0xE000EDF0)
T6534 000:268.493   Data:  03 00 03 00
T6534 000:268.504   Debug reg: DHCSR
T6534 000:268.511 - 0.464ms returns 1 (0x1)
T6534 000:268.517 JLINK_WriteU32_64(0xE000EDF0, 0xA05F0003)
T6534 000:268.522   Debug reg: DHCSR
T6534 000:268.776   CPU_WriteMem(4 bytes @ 0xE000EDF0)
T6534 000:269.296 - 0.777ms returns 0 (0x00000000)
T6534 000:269.302 JLINK_WriteU32_64(0xE000EDFC, 0x01000000)
T6534 000:269.307   Debug reg: DEMCR
T6534 000:269.315   CPU_WriteMem(4 bytes @ 0xE000EDFC)
T6534 000:269.821 - 0.516ms returns 0 (0x00000000)
T6534 000:276.717 JLINK_GetHWStatus(...)
T6534 000:277.088 - 0.370ms returns 0
T6534 000:281.547 JLINK_GetNumBPUnits(Type = 0xFFFFFF00)
T6534 000:281.569 - 0.021ms returns 0x06
T6534 000:281.575 JLINK_GetNumBPUnits(Type = 0xF0)
T6534 000:281.579 - 0.004ms returns 0x2000
T6534 000:281.584 JLINK_GetNumWPUnits()
T6534 000:281.589 - 0.004ms returns 4
T6534 000:287.844 JLINK_GetSpeed()
T6534 000:287.871 - 0.026ms returns 4000
T6534 000:291.241 JLINK_ReadMemU32(0xE000E004, 0x1 Items)
T6534 000:291.270   CPU_ReadMem(4 bytes @ 0xE000E004)
T6534 000:291.744   Data:  01 00 00 00
T6534 000:291.753 - 0.511ms returns 1 (0x1)
T6534 000:291.759 JLINK_ReadMemU32(0xE000E004, 0x1 Items)
T6534 000:291.765   CPU_ReadMem(4 bytes @ 0xE000E004)
T6534 000:292.154   Data:  01 00 00 00
T6534 000:292.167 - 0.407ms returns 1 (0x1)
T6534 000:292.175 JLINK_WriteMemEx(0xE0001000, 0x0000001C Bytes, Flags = 0x02000004)
T6534 000:292.179   Data:  01 00 00 00 00 00 00 00 00 00 00 00 00 00 00 00 ...
T6534 000:292.191   CPU_WriteMem(28 bytes @ 0xE0001000)
T6534 000:292.769 - 0.594ms returns 0x1C
T6534 000:292.780 JLINK_Halt()
T6534 000:292.785 - 0.004ms returns 0x00
T6534 000:292.790 JLINK_IsHalted()
T6534 000:292.795 - 0.004ms returns TRUE
T6534 000:295.052 JLINK_WriteMem(0x20000000, 0x164 Bytes, ...)
T6534 000:295.063   Data:  00 BE 0A E0 0D 78 2D 06 68 40 08 24 40 00 00 D3 ...
T6534 000:295.301   CPU_WriteMem(356 bytes @ 0x20000000)
T6534 000:297.126 - 2.073ms returns 0x164
T6534 000:297.152 JLINK_HasError()
T6534 000:297.170 JLINK_WriteReg(R0, 0x08000000)
T6534 000:297.176 - 0.017ms returns 0
T6534 000:297.181 JLINK_WriteReg(R1, 0x00B71B00)
T6534 000:297.185 - 0.004ms returns 0
T6534 000:297.189 JLINK_WriteReg(R2, 0x00000001)
T6534 000:297.194 - 0.004ms returns 0
T6534 000:297.198 JLINK_WriteReg(R3, 0x00000000)
T6534 000:297.202 - 0.004ms returns 0
T6534 000:297.207 JLINK_WriteReg(R4, 0x00000000)
T6534 000:297.211 - 0.004ms returns 0
T6534 000:297.216 JLINK_WriteReg(R5, 0x00000000)
T6534 000:297.220 - 0.004ms returns 0
T6534 000:297.224 JLINK_WriteReg(R6, 0x00000000)
T6534 000:297.228 - 0.004ms returns 0
T6534 000:297.233 JLINK_WriteReg(R7, 0x00000000)
T6534 000:297.237 - 0.004ms returns 0
T6534 000:297.241 JLINK_WriteReg(R8, 0x00000000)
T6534 000:297.245 - 0.004ms returns 0
T6534 000:297.250 JLINK_WriteReg(R9, 0x20000160)
T6534 000:297.254 - 0.004ms returns 0
T6534 000:297.261 JLINK_WriteReg(R10, 0x00000000)
T6534 000:297.266 - 0.005ms returns 0
T6534 000:297.271 JLINK_WriteReg(R11, 0x00000000)
T6534 000:297.275 - 0.004ms returns 0
T6534 000:297.279 JLINK_WriteReg(R12, 0x00000000)
T6534 000:297.283 - 0.004ms returns 0
T6534 000:297.288 JLINK_WriteReg(R13 (SP), 0x20001000)
T6534 000:297.293 - 0.004ms returns 0
T6534 000:297.297 JLINK_WriteReg(R14, 0x20000001)
T6534 000:297.301 - 0.004ms returns 0
T6534 000:297.309 JLINK_WriteReg(R15 (PC), 0x20000038)
T6534 000:297.313 - 0.006ms returns 0
T6534 000:297.318 JLINK_WriteReg(XPSR, 0x01000000)
T6534 000:297.322 - 0.004ms returns 0
T6534 000:297.326 JLINK_WriteReg(MSP, 0x20001000)
T6534 000:297.330 - 0.004ms returns 0
T6534 000:297.335 JLINK_WriteReg(PSP, 0x20001000)
T6534 000:297.339 - 0.004ms returns 0
T6534 000:297.344 JLINK_WriteReg(CFBP, 0x00000000)
T6534 000:297.348 - 0.004ms returns 0
T6534 000:297.353 JLINK_SetBPEx(Addr = 0x20000000, Type = 0xFFFFFFF2)
T6534 000:297.360   CPU_ReadMem(2 bytes @ 0x20000000)
T6534 000:297.846 - 0.492ms returns 0x00000001
T6534 000:297.859 JLINK_Go()
T6534 000:297.866   CPU_WriteMem(2 bytes @ 0x20000000)
T6534 000:298.759   CPU_ReadMem(4 bytes @ 0xE0001000)
T6534 000:299.226   CPU_WriteMem(4 bytes @ 0xE0002008)
T6534 000:299.249   CPU_WriteMem(4 bytes @ 0xE000200C)
T6534 000:299.255   CPU_WriteMem(4 bytes @ 0xE0002010)
T6534 000:299.261   CPU_WriteMem(4 bytes @ 0xE0002014)
T6534 000:299.267   CPU_WriteMem(4 bytes @ 0xE0002018)
T6534 000:299.273   CPU_WriteMem(4 bytes @ 0xE000201C)
T6534 000:300.655   CPU_WriteMem(4 bytes @ 0xE0001004)
T6534 000:305.743   Memory map 'after startup completion point' is active
T6534 000:305.765 - 7.905ms
T6534 000:305.773 JLINK_IsHalted()
T6534 000:308.213   CPU_ReadMem(2 bytes @ 0x20000000)
T6534 000:308.652 - 2.878ms returns TRUE
T6534 000:308.661 JLINK_ReadReg(R15 (PC))
T6534 000:308.668 - 0.007ms returns 0x20000000
T6534 000:308.673 JLINK_ClrBPEx(BPHandle = 0x00000001)
T6534 000:308.678 - 0.004ms returns 0x00
T6534 000:308.683 JLINK_ReadReg(R0)
T6534 000:308.687 - 0.004ms returns 0x00000000
T6534 000:308.930 JLINK_HasError()
T6534 000:308.939 JLINK_WriteReg(R0, 0x08000000)
T6534 000:308.944 - 0.005ms returns 0
T6534 000:308.949 JLINK_WriteReg(R1, 0x00B71B00)
T6534 000:308.953 - 0.004ms returns 0
T6534 000:308.958 JLINK_WriteReg(R2, 0x00000001)
T6534 000:308.962 - 0.004ms returns 0
T6534 000:308.966 JLINK_WriteReg(R3, 0x00000000)
T6534 000:308.970 - 0.004ms returns 0
T6534 000:308.975 JLINK_WriteReg(R4, 0x00000000)
T6534 000:308.979 - 0.004ms returns 0
T6534 000:308.984 JLINK_WriteReg(R5, 0x00000000)
T6534 000:308.988 - 0.004ms returns 0
T6534 000:308.993 JLINK_WriteReg(R6, 0x00000000)
T6534 000:308.997 - 0.004ms returns 0
T6534 000:309.001 JLINK_WriteReg(R7, 0x00000000)
T6534 000:309.005 - 0.004ms returns 0
T6534 000:309.010 JLINK_WriteReg(R8, 0x00000000)
T6534 000:309.014 - 0.004ms returns 0
T6534 000:309.018 JLINK_WriteReg(R9, 0x20000160)
T6534 000:309.022 - 0.004ms returns 0
T6534 000:309.027 JLINK_WriteReg(R10, 0x00000000)
T6534 000:309.031 - 0.004ms returns 0
T6534 000:309.035 JLINK_WriteReg(R11, 0x00000000)
T6534 000:309.039 - 0.004ms returns 0
T6534 000:309.044 JLINK_WriteReg(R12, 0x00000000)
T6534 000:309.048 - 0.004ms returns 0
T6534 000:309.053 JLINK_WriteReg(R13 (SP), 0x20001000)
T6534 000:309.057 - 0.004ms returns 0
T6534 000:309.062 JLINK_WriteReg(R14, 0x20000001)
T6534 000:309.066 - 0.004ms returns 0
T6534 000:309.070 JLINK_WriteReg(R15 (PC), 0x2000007C)
T6534 000:309.074 - 0.004ms returns 0
T6534 000:309.079 JLINK_WriteReg(XPSR, 0x01000000)
T6534 000:309.083 - 0.004ms returns 0
T6534 000:309.088 JLINK_WriteReg(MSP, 0x20001000)
T6534 000:309.092 - 0.004ms returns 0
T6534 000:309.096 JLINK_WriteReg(PSP, 0x20001000)
T6534 000:309.100 - 0.004ms returns 0
T6534 000:309.105 JLINK_WriteReg(CFBP, 0x00000000)
T6534 000:309.109 - 0.004ms returns 0
T6534 000:309.114 JLINK_SetBPEx(Addr = 0x20000000, Type = 0xFFFFFFF2)
T6534 000:309.119 - 0.005ms returns 0x00000002
T6534 000:309.123 JLINK_Go()
T6534 000:309.171   CPU_ReadMem(4 bytes @ 0xE0001000)
T6534 000:311.882 - 2.758ms
T6534 000:311.891 JLINK_IsHalted()
T6534 000:312.328 - 0.436ms returns FALSE
T6534 000:312.334 JLINK_HasError()
T6534 000:325.593 JLINK_IsHalted()
T6534 000:326.088 - 0.495ms returns FALSE
T6534 000:326.103 JLINK_HasError()
T6534 000:327.537 JLINK_IsHalted()
T6534 000:328.072 - 0.535ms returns FALSE
T6534 000:328.085 JLINK_HasError()
T6534 000:330.555 JLINK_IsHalted()
T6534 000:331.076 - 0.520ms returns FALSE
T6534 000:331.090 JLINK_HasError()
T6534 000:332.493 JLINK_IsHalted()
T6534 000:332.962 - 0.468ms returns FALSE
T6534 000:332.969 JLINK_HasError()
T6534 000:334.512 JLINK_IsHalted()
T6534 000:336.784   CPU_ReadMem(2 bytes @ 0x20000000)
T6534 000:337.384 - 2.872ms returns TRUE
T6534 000:337.400 JLINK_ReadReg(R15 (PC))
T6534 000:337.407 - 0.007ms returns 0x20000000
T6534 000:337.413 JLINK_ClrBPEx(BPHandle = 0x00000002)
T6534 000:337.417 - 0.004ms returns 0x00
T6534 000:337.423 JLINK_ReadReg(R0)
T6534 000:337.427 - 0.004ms returns 0x00000000
T6534 000:389.757 JLINK_HasError()
T6534 000:389.787 JLINK_WriteReg(R0, 0x00000001)
T6534 000:389.795 - 0.007ms returns 0
T6534 000:389.800 JLINK_WriteReg(R1, 0x00B71B00)
T6534 000:389.805 - 0.004ms returns 0
T6534 000:389.809 JLINK_WriteReg(R2, 0x00000001)
T6534 000:389.813 - 0.004ms returns 0
T6534 000:389.818 JLINK_WriteReg(R3, 0x00000000)
T6534 000:389.822 - 0.004ms returns 0
T6534 000:389.827 JLINK_WriteReg(R4, 0x00000000)
T6534 000:389.831 - 0.004ms returns 0
T6534 000:389.836 JLINK_WriteReg(R5, 0x00000000)
T6534 000:389.840 - 0.004ms returns 0
T6534 000:389.844 JLINK_WriteReg(R6, 0x00000000)
T6534 000:389.851 - 0.007ms returns 0
T6534 000:389.856 JLINK_WriteReg(R7, 0x00000000)
T6534 000:389.860 - 0.004ms returns 0
T6534 000:389.865 JLINK_WriteReg(R8, 0x00000000)
T6534 000:389.869 - 0.004ms returns 0
T6534 000:389.873 JLINK_WriteReg(R9, 0x20000160)
T6534 000:389.877 - 0.004ms returns 0
T6534 000:389.882 JLINK_WriteReg(R10, 0x00000000)
T6534 000:389.886 - 0.004ms returns 0
T6534 000:389.891 JLINK_WriteReg(R11, 0x00000000)
T6534 000:389.895 - 0.004ms returns 0
T6534 000:389.899 JLINK_WriteReg(R12, 0x00000000)
T6534 000:389.903 - 0.004ms returns 0
T6534 000:389.908 JLINK_WriteReg(R13 (SP), 0x20001000)
T6534 000:389.912 - 0.004ms returns 0
T6534 000:389.917 JLINK_WriteReg(R14, 0x20000001)
T6534 000:389.921 - 0.004ms returns 0
T6534 000:389.926 JLINK_WriteReg(R15 (PC), 0x2000006A)
T6534 000:389.930 - 0.004ms returns 0
T6534 000:389.934 JLINK_WriteReg(XPSR, 0x01000000)
T6534 000:389.938 - 0.004ms returns 0
T6534 000:389.943 JLINK_WriteReg(MSP, 0x20001000)
T6534 000:389.947 - 0.004ms returns 0
T6534 000:389.952 JLINK_WriteReg(PSP, 0x20001000)
T6534 000:389.956 - 0.004ms returns 0
T6534 000:389.961 JLINK_WriteReg(CFBP, 0x00000000)
T6534 000:389.965 - 0.004ms returns 0
T6534 000:389.970 JLINK_SetBPEx(Addr = 0x20000000, Type = 0xFFFFFFF2)
T6534 000:389.975 - 0.005ms returns 0x00000003
T6534 000:389.980 JLINK_Go()
T6534 000:389.996   CPU_ReadMem(4 bytes @ 0xE0001000)
T6534 000:392.735 - 2.753ms
T6534 000:392.761 JLINK_IsHalted()
T6534 000:395.159   CPU_ReadMem(2 bytes @ 0x20000000)
T6534 000:395.654 - 2.892ms returns TRUE
T6534 000:395.668 JLINK_ReadReg(R15 (PC))
T6534 000:395.676 - 0.007ms returns 0x20000000
T6534 000:395.762 JLINK_ClrBPEx(BPHandle = 0x00000003)
T6534 000:395.783 - 0.021ms returns 0x00
T6534 000:395.793 JLINK_ReadReg(R0)
T6534 000:395.801 - 0.008ms returns 0x00000000
T6534 000:401.042 JLINK_WriteMem(0x20000000, 0x164 Bytes, ...)
T6534 000:401.057   Data:  00 BE 0A E0 0D 78 2D 06 68 40 08 24 40 00 00 D3 ...
T6534 000:401.076   CPU_WriteMem(356 bytes @ 0x20000000)
T6534 000:403.048 - 2.005ms returns 0x164
T6534 000:403.096 JLINK_HasError()
T6534 000:403.104 JLINK_WriteReg(R0, 0x08000000)
T6534 000:403.111 - 0.007ms returns 0
T6534 000:403.116 JLINK_WriteReg(R1, 0x00B71B00)
T6534 000:403.120 - 0.004ms returns 0
T6534 000:403.125 JLINK_WriteReg(R2, 0x00000002)
T6534 000:403.129 - 0.004ms returns 0
T6534 000:403.139 JLINK_WriteReg(R3, 0x00000000)
T6534 000:403.143 - 0.005ms returns 0
T6534 000:403.148 JLINK_WriteReg(R4, 0x00000000)
T6534 000:403.152 - 0.004ms returns 0
T6534 000:403.157 JLINK_WriteReg(R5, 0x00000000)
T6534 000:403.161 - 0.004ms returns 0
T6534 000:403.165 JLINK_WriteReg(R6, 0x00000000)
T6534 000:403.169 - 0.004ms returns 0
T6534 000:403.174 JLINK_WriteReg(R7, 0x00000000)
T6534 000:403.178 - 0.004ms returns 0
T6534 000:403.183 JLINK_WriteReg(R8, 0x00000000)
T6534 000:403.187 - 0.004ms returns 0
T6534 000:403.191 JLINK_WriteReg(R9, 0x20000160)
T6534 000:403.195 - 0.004ms returns 0
T6534 000:403.200 JLINK_WriteReg(R10, 0x00000000)
T6534 000:403.204 - 0.004ms returns 0
T6534 000:403.208 JLINK_WriteReg(R11, 0x00000000)
T6534 000:403.213 - 0.004ms returns 0
T6534 000:403.217 JLINK_WriteReg(R12, 0x00000000)
T6534 000:403.221 - 0.004ms returns 0
T6534 000:403.226 JLINK_WriteReg(R13 (SP), 0x20001000)
T6534 000:403.230 - 0.004ms returns 0
T6534 000:403.235 JLINK_WriteReg(R14, 0x20000001)
T6534 000:403.239 - 0.004ms returns 0
T6534 000:403.244 JLINK_WriteReg(R15 (PC), 0x20000038)
T6534 000:403.248 - 0.004ms returns 0
T6534 000:403.252 JLINK_WriteReg(XPSR, 0x01000000)
T6534 000:403.257 - 0.004ms returns 0
T6534 000:403.261 JLINK_WriteReg(MSP, 0x20001000)
T6534 000:403.265 - 0.004ms returns 0
T6534 000:403.270 JLINK_WriteReg(PSP, 0x20001000)
T6534 000:403.274 - 0.004ms returns 0
T6534 000:403.278 JLINK_WriteReg(CFBP, 0x00000000)
T6534 000:403.282 - 0.004ms returns 0
T6534 000:403.288 JLINK_SetBPEx(Addr = 0x20000000, Type = 0xFFFFFFF2)
T6534 000:403.297   CPU_ReadMem(2 bytes @ 0x20000000)
T6534 000:403.964 - 0.675ms returns 0x00000004
T6534 000:403.997 JLINK_Go()
T6534 000:404.005   CPU_WriteMem(2 bytes @ 0x20000000)
T6534 000:404.531   CPU_ReadMem(4 bytes @ 0xE0001000)
T6534 000:407.523 - 3.525ms
T6534 000:407.536 JLINK_IsHalted()
T6534 000:409.853   CPU_ReadMem(2 bytes @ 0x20000000)
T6534 000:410.357 - 2.821ms returns TRUE
T6534 000:410.371 JLINK_ReadReg(R15 (PC))
T6534 000:410.377 - 0.006ms returns 0x20000000
T6534 000:410.383 JLINK_ClrBPEx(BPHandle = 0x00000004)
T6534 000:410.387 - 0.004ms returns 0x00
T6534 000:410.392 JLINK_ReadReg(R0)
T6534 000:410.397 - 0.004ms returns 0x00000000
T6534 000:410.678 JLINK_WriteMem(0x20000164, 0x29C Bytes, ...)
T6534 000:410.686   Data:  C8 22 00 20 F5 14 00 08 A1 04 00 08 A3 04 00 08 ...
T6534 000:410.700   CPU_WriteMem(668 bytes @ 0x20000164)
T6534 000:413.489 - 2.810ms returns 0x29C
T6534 000:413.502 JLINK_WriteMem(0x20000400, 0x164 Bytes, ...)
T6534 000:413.508   Data:  11 46 FF F7 E9 FF 00 F0 59 F8 04 F0 49 FD 03 B4 ...
T6534 000:413.527   CPU_WriteMem(356 bytes @ 0x20000400)
T6534 000:415.487 - 1.984ms returns 0x164
T6534 000:415.496 JLINK_HasError()
T6534 000:415.502 JLINK_WriteReg(R0, 0x08000000)
T6534 000:415.508 - 0.005ms returns 0
T6534 000:415.513 JLINK_WriteReg(R1, 0x00000400)
T6534 000:415.517 - 0.004ms returns 0
T6534 000:415.522 JLINK_WriteReg(R2, 0x20000164)
T6534 000:415.526 - 0.004ms returns 0
T6534 000:415.530 JLINK_WriteReg(R3, 0x00000000)
T6534 000:415.534 - 0.004ms returns 0
T6534 000:415.539 JLINK_WriteReg(R4, 0x00000000)
T6534 000:415.543 - 0.004ms returns 0
T6534 000:415.547 JLINK_WriteReg(R5, 0x00000000)
T6534 000:415.552 - 0.004ms returns 0
T6534 000:415.556 JLINK_WriteReg(R6, 0x00000000)
T6534 000:415.560 - 0.004ms returns 0
T6534 000:415.565 JLINK_WriteReg(R7, 0x00000000)
T6534 000:415.569 - 0.004ms returns 0
T6534 000:415.573 JLINK_WriteReg(R8, 0x00000000)
T6534 000:415.577 - 0.004ms returns 0
T6534 000:415.582 JLINK_WriteReg(R9, 0x20000160)
T6534 000:415.586 - 0.004ms returns 0
T6534 000:415.591 JLINK_WriteReg(R10, 0x00000000)
T6534 000:415.595 - 0.004ms returns 0
T6534 000:415.599 JLINK_WriteReg(R11, 0x00000000)
T6534 000:415.603 - 0.004ms returns 0
T6534 000:415.608 JLINK_WriteReg(R12, 0x00000000)
T6534 000:415.612 - 0.004ms returns 0
T6534 000:415.617 JLINK_WriteReg(R13 (SP), 0x20001000)
T6534 000:415.621 - 0.004ms returns 0
T6534 000:415.625 JLINK_WriteReg(R14, 0x20000001)
T6534 000:415.633 - 0.007ms returns 0
T6534 000:415.638 JLINK_WriteReg(R15 (PC), 0x200000F4)
T6534 000:415.642 - 0.004ms returns 0
T6534 000:415.647 JLINK_WriteReg(XPSR, 0x01000000)
T6534 000:415.651 - 0.004ms returns 0
T6534 000:415.655 JLINK_WriteReg(MSP, 0x20001000)
T6534 000:415.660 - 0.004ms returns 0
T6534 000:415.664 JLINK_WriteReg(PSP, 0x20001000)
T6534 000:415.668 - 0.004ms returns 0
T6534 000:415.673 JLINK_WriteReg(CFBP, 0x00000000)
T6534 000:415.677 - 0.004ms returns 0
T6534 000:415.682 JLINK_SetBPEx(Addr = 0x20000000, Type = 0xFFFFFFF2)
T6534 000:415.687 - 0.005ms returns 0x00000005
T6534 000:415.692 JLINK_Go()
T6534 000:415.701   CPU_ReadMem(4 bytes @ 0xE0001000)
T6534 000:418.527 - 2.834ms
T6534 000:418.555 JLINK_IsHalted()
T6534 000:419.020 - 0.464ms returns FALSE
T6534 000:419.036 JLINK_HasError()
T6534 000:423.915 JLINK_IsHalted()
T6534 000:424.448 - 0.532ms returns FALSE
T6534 000:424.466 JLINK_HasError()
T6534 000:425.906 JLINK_IsHalted()
T6534 000:426.437 - 0.530ms returns FALSE
T6534 000:426.445 JLINK_HasError()
T6534 000:434.919 JLINK_IsHalted()
T6534 000:435.475 - 0.554ms returns FALSE
T6534 000:435.506 JLINK_HasError()
T6534 000:436.915 JLINK_IsHalted()
T6534 000:437.819 - 0.903ms returns FALSE
T6534 000:437.828 JLINK_HasError()
T6534 000:438.886 JLINK_IsHalted()
T6534 000:439.417 - 0.530ms returns FALSE
T6534 000:439.436 JLINK_HasError()
T6534 000:440.921 JLINK_IsHalted()
T6534 000:441.443 - 0.522ms returns FALSE
T6534 000:441.479 JLINK_HasError()
T6534 000:444.843 JLINK_IsHalted()
T6534 000:445.314 - 0.470ms returns FALSE
T6534 000:445.322 JLINK_HasError()
T6534 000:446.833 JLINK_IsHalted()
T6534 000:447.274 - 0.440ms returns FALSE
T6534 000:447.284 JLINK_HasError()
T6534 000:448.827 JLINK_IsHalted()
T6534 000:451.538   CPU_ReadMem(2 bytes @ 0x20000000)
T6534 000:452.044 - 3.216ms returns TRUE
T6534 000:452.056 JLINK_ReadReg(R15 (PC))
T6534 000:452.063 - 0.007ms returns 0x20000000
T6534 000:452.068 JLINK_ClrBPEx(BPHandle = 0x00000005)
T6534 000:452.073 - 0.005ms returns 0x00
T6534 000:452.079 JLINK_ReadReg(R0)
T6534 000:452.083 - 0.004ms returns 0x00000000
T6534 000:452.625 JLINK_WriteMem(0x20000164, 0x29C Bytes, ...)
T6534 000:452.636   Data:  30 78 9A F8 00 10 88 42 EF D1 86 F8 00 80 FF F7 ...
T6534 000:452.650   CPU_WriteMem(668 bytes @ 0x20000164)
T6534 000:455.360 - 2.734ms returns 0x29C
T6534 000:455.378 JLINK_WriteMem(0x20000400, 0x164 Bytes, ...)
T6534 000:455.383   Data:  00 F0 C5 FB 64 1C A4 B2 B4 42 F8 D3 6D 1C AD B2 ...
T6534 000:455.397   CPU_WriteMem(356 bytes @ 0x20000400)
T6534 000:457.500 - 2.121ms returns 0x164
T6534 000:457.526 JLINK_HasError()
T6534 000:457.533 JLINK_WriteReg(R0, 0x08000400)
T6534 000:457.542 - 0.008ms returns 0
T6534 000:457.546 JLINK_WriteReg(R1, 0x00000400)
T6534 000:457.550 - 0.004ms returns 0
T6534 000:457.555 JLINK_WriteReg(R2, 0x20000164)
T6534 000:457.559 - 0.004ms returns 0
T6534 000:457.564 JLINK_WriteReg(R3, 0x00000000)
T6534 000:457.568 - 0.004ms returns 0
T6534 000:457.572 JLINK_WriteReg(R4, 0x00000000)
T6534 000:457.577 - 0.004ms returns 0
T6534 000:457.581 JLINK_WriteReg(R5, 0x00000000)
T6534 000:457.585 - 0.004ms returns 0
T6534 000:457.590 JLINK_WriteReg(R6, 0x00000000)
T6534 000:457.594 - 0.004ms returns 0
T6534 000:457.598 JLINK_WriteReg(R7, 0x00000000)
T6534 000:457.602 - 0.004ms returns 0
T6534 000:457.607 JLINK_WriteReg(R8, 0x00000000)
T6534 000:457.611 - 0.004ms returns 0
T6534 000:457.616 JLINK_WriteReg(R9, 0x20000160)
T6534 000:457.620 - 0.004ms returns 0
T6534 000:457.624 JLINK_WriteReg(R10, 0x00000000)
T6534 000:457.628 - 0.004ms returns 0
T6534 000:457.633 JLINK_WriteReg(R11, 0x00000000)
T6534 000:457.637 - 0.004ms returns 0
T6534 000:457.641 JLINK_WriteReg(R12, 0x00000000)
T6534 000:457.645 - 0.004ms returns 0
T6534 000:457.650 JLINK_WriteReg(R13 (SP), 0x20001000)
T6534 000:457.654 - 0.004ms returns 0
T6534 000:457.659 JLINK_WriteReg(R14, 0x20000001)
T6534 000:457.663 - 0.004ms returns 0
T6534 000:457.668 JLINK_WriteReg(R15 (PC), 0x200000F4)
T6534 000:457.676 - 0.008ms returns 0
T6534 000:457.680 JLINK_WriteReg(XPSR, 0x01000000)
T6534 000:457.685 - 0.004ms returns 0
T6534 000:457.689 JLINK_WriteReg(MSP, 0x20001000)
T6534 000:457.693 - 0.004ms returns 0
T6534 000:457.698 JLINK_WriteReg(PSP, 0x20001000)
T6534 000:457.702 - 0.004ms returns 0
T6534 000:457.706 JLINK_WriteReg(CFBP, 0x00000000)
T6534 000:457.710 - 0.004ms returns 0
T6534 000:457.716 JLINK_SetBPEx(Addr = 0x20000000, Type = 0xFFFFFFF2)
T6534 000:457.721 - 0.005ms returns 0x00000006
T6534 000:457.725 JLINK_Go()
T6534 000:457.737   CPU_ReadMem(4 bytes @ 0xE0001000)
T6534 000:460.649 - 2.923ms
T6534 000:460.664 JLINK_IsHalted()
T6534 000:461.093 - 0.428ms returns FALSE
T6534 000:461.104 JLINK_HasError()
T6534 000:466.770 JLINK_IsHalted()
T6534 000:467.269 - 0.498ms returns FALSE
T6534 000:467.296 JLINK_HasError()
T6534 000:468.759 JLINK_IsHalted()
T6534 000:469.282 - 0.522ms returns FALSE
T6534 000:469.299 JLINK_HasError()
T6534 000:470.840 JLINK_IsHalted()
T6534 000:471.339 - 0.500ms returns FALSE
T6534 000:471.355 JLINK_HasError()
T6534 000:474.862 JLINK_IsHalted()
T6534 000:475.437 - 0.574ms returns FALSE
T6534 000:475.463 JLINK_HasError()
T6534 000:476.860 JLINK_IsHalted()
T6534 000:477.368 - 0.510ms returns FALSE
T6534 000:477.377 JLINK_HasError()
T6534 000:478.822 JLINK_IsHalted()
T6534 000:479.317 - 0.496ms returns FALSE
T6534 000:479.326 JLINK_HasError()
T6534 000:481.822 JLINK_IsHalted()
T6534 000:482.316 - 0.497ms returns FALSE
T6534 000:482.324 JLINK_HasError()
T6534 000:483.797 JLINK_IsHalted()
T6534 000:484.351 - 0.557ms returns FALSE
T6534 000:484.359 JLINK_HasError()
T6534 000:485.783 JLINK_IsHalted()
T6534 000:486.201 - 0.419ms returns FALSE
T6534 000:486.212 JLINK_HasError()
T6534 000:487.844 JLINK_IsHalted()
T6534 000:488.279 - 0.435ms returns FALSE
T6534 000:488.285 JLINK_HasError()
T6534 000:489.771 JLINK_IsHalted()
T6534 000:490.241 - 0.472ms returns FALSE
T6534 000:490.249 JLINK_HasError()
T6534 000:491.758 JLINK_IsHalted()
T6534 000:494.069   CPU_ReadMem(2 bytes @ 0x20000000)
T6534 000:494.611 - 2.854ms returns TRUE
T6534 000:494.620 JLINK_ReadReg(R15 (PC))
T6534 000:494.651 - 0.031ms returns 0x20000000
T6534 000:494.656 JLINK_ClrBPEx(BPHandle = 0x00000006)
T6534 000:494.661 - 0.004ms returns 0x00
T6534 000:494.666 JLINK_ReadReg(R0)
T6534 000:494.670 - 0.004ms returns 0x00000000
T6534 000:495.060 JLINK_WriteMem(0x20000164, 0x29C Bytes, ...)
T6534 000:495.067   Data:  8B F1 1F FA 8A F0 04 9A FF F7 54 FF 07 EB 05 0A ...
T6534 000:495.081   CPU_WriteMem(668 bytes @ 0x20000164)
T6534 000:497.794 - 2.733ms returns 0x29C
T6534 000:497.811 JLINK_WriteMem(0x20000400, 0x164 Bytes, ...)
T6534 000:497.816   Data:  01 47 53 46 2A 46 49 46 40 46 00 96 FF F7 44 FF ...
T6534 000:497.828   CPU_WriteMem(356 bytes @ 0x20000400)
T6534 000:500.172 - 2.358ms returns 0x164
T6534 000:500.187 JLINK_HasError()
T6534 000:500.245 JLINK_WriteReg(R0, 0x08000800)
T6534 000:500.251 - 0.006ms returns 0
T6534 000:500.256 JLINK_WriteReg(R1, 0x00000400)
T6534 000:500.260 - 0.004ms returns 0
T6534 000:500.264 JLINK_WriteReg(R2, 0x20000164)
T6534 000:500.268 - 0.004ms returns 0
T6534 000:500.273 JLINK_WriteReg(R3, 0x00000000)
T6534 000:500.277 - 0.004ms returns 0
T6534 000:500.281 JLINK_WriteReg(R4, 0x00000000)
T6534 000:500.286 - 0.004ms returns 0
T6534 000:500.290 JLINK_WriteReg(R5, 0x00000000)
T6534 000:500.294 - 0.004ms returns 0
T6534 000:500.299 JLINK_WriteReg(R6, 0x00000000)
T6534 000:500.303 - 0.004ms returns 0
T6534 000:500.307 JLINK_WriteReg(R7, 0x00000000)
T6534 000:500.311 - 0.004ms returns 0
T6534 000:500.316 JLINK_WriteReg(R8, 0x00000000)
T6534 000:500.320 - 0.004ms returns 0
T6534 000:500.324 JLINK_WriteReg(R9, 0x20000160)
T6534 000:500.328 - 0.004ms returns 0
T6534 000:500.333 JLINK_WriteReg(R10, 0x00000000)
T6534 000:500.337 - 0.004ms returns 0
T6534 000:500.342 JLINK_WriteReg(R11, 0x00000000)
T6534 000:500.346 - 0.004ms returns 0
T6534 000:500.350 JLINK_WriteReg(R12, 0x00000000)
T6534 000:500.389 - 0.039ms returns 0
T6534 000:500.396 JLINK_WriteReg(R13 (SP), 0x20001000)
T6534 000:500.400 - 0.004ms returns 0
T6534 000:500.405 JLINK_WriteReg(R14, 0x20000001)
T6534 000:500.409 - 0.004ms returns 0
T6534 000:500.414 JLINK_WriteReg(R15 (PC), 0x200000F4)
T6534 000:500.418 - 0.004ms returns 0
T6534 000:500.423 JLINK_WriteReg(XPSR, 0x01000000)
T6534 000:500.427 - 0.004ms returns 0
T6534 000:500.432 JLINK_WriteReg(MSP, 0x20001000)
T6534 000:500.436 - 0.004ms returns 0
T6534 000:500.440 JLINK_WriteReg(PSP, 0x20001000)
T6534 000:500.444 - 0.004ms returns 0
T6534 000:500.449 JLINK_WriteReg(CFBP, 0x00000000)
T6534 000:500.453 - 0.004ms returns 0
T6534 000:500.458 JLINK_SetBPEx(Addr = 0x20000000, Type = 0xFFFFFFF2)
T6534 000:500.463 - 0.005ms returns 0x00000007
T6534 000:500.467 JLINK_Go()
T6534 000:500.477   CPU_ReadMem(4 bytes @ 0xE0001000)
T6534 000:503.212 - 2.744ms
T6534 000:503.228 JLINK_IsHalted()
T6534 000:503.639 - 0.410ms returns FALSE
T6534 000:503.645 JLINK_HasError()
T6534 000:504.799 JLINK_IsHalted()
T6534 000:505.277 - 0.478ms returns FALSE
T6534 000:505.284 JLINK_HasError()
T6534 000:506.865 JLINK_IsHalted()
T6534 000:507.278 - 0.412ms returns FALSE
T6534 000:507.283 JLINK_HasError()
T6534 000:508.739 JLINK_IsHalted()
T6534 000:509.238 - 0.499ms returns FALSE
T6534 000:509.246 JLINK_HasError()
T6534 000:510.763 JLINK_IsHalted()
T6534 000:511.193 - 0.430ms returns FALSE
T6534 000:511.203 JLINK_HasError()
T6534 000:512.661 JLINK_IsHalted()
T6534 000:513.091 - 0.429ms returns FALSE
T6534 000:513.101 JLINK_HasError()
T6534 000:514.773 JLINK_IsHalted()
T6534 000:515.226 - 0.453ms returns FALSE
T6534 000:515.241 JLINK_HasError()
T6534 000:516.730 JLINK_IsHalted()
T6534 000:517.297 - 0.567ms returns FALSE
T6534 000:517.327 JLINK_HasError()
T6534 000:519.282 JLINK_IsHalted()
T6534 000:520.002 - 0.722ms returns FALSE
T6534 000:520.009 JLINK_HasError()
T6534 000:521.240 JLINK_IsHalted()
T6534 000:522.012 - 0.772ms returns FALSE
T6534 000:522.025 JLINK_HasError()
T6534 000:523.161 JLINK_IsHalted()
T6534 000:523.617 - 0.455ms returns FALSE
T6534 000:523.630 JLINK_HasError()
T6534 000:525.304 JLINK_IsHalted()
T6534 000:525.751 - 0.446ms returns FALSE
T6534 000:525.759 JLINK_HasError()
T6534 000:527.268 JLINK_IsHalted()
T6534 000:528.013 - 0.743ms returns FALSE
T6534 000:528.080 JLINK_HasError()
T6534 000:529.231 JLINK_IsHalted()
T6534 000:529.827 - 0.597ms returns FALSE
T6534 000:529.834 JLINK_HasError()
T6534 000:531.237 JLINK_IsHalted()
T6534 000:531.870 - 0.634ms returns FALSE
T6534 000:531.876 JLINK_HasError()
T6534 000:533.335 JLINK_IsHalted()
T6534 000:533.753 - 0.417ms returns FALSE
T6534 000:533.766 JLINK_HasError()
T6534 000:535.414 JLINK_IsHalted()
T6534 000:537.703   CPU_ReadMem(2 bytes @ 0x20000000)
T6534 000:538.157 - 2.744ms returns TRUE
T6534 000:538.163 JLINK_ReadReg(R15 (PC))
T6534 000:538.169 - 0.006ms returns 0x20000000
T6534 000:538.174 JLINK_ClrBPEx(BPHandle = 0x00000007)
T6534 000:538.179 - 0.004ms returns 0x00
T6534 000:538.184 JLINK_ReadReg(R0)
T6534 000:538.189 - 0.004ms returns 0x00000000
T6534 000:538.563 JLINK_WriteMem(0x20000164, 0x29C Bytes, ...)
T6534 000:538.571   Data:  96 E6 CD E9 01 6B 04 FB 08 90 80 B2 CD F8 00 A0 ...
T6534 000:538.583   CPU_WriteMem(668 bytes @ 0x20000164)
T6534 000:541.241 - 2.677ms returns 0x29C
T6534 000:541.249 JLINK_WriteMem(0x20000400, 0x164 Bytes, ...)
T6534 000:541.254   Data:  10 B5 FF F7 83 FF 82 4C 40 21 20 46 00 F0 7A FC ...
T6534 000:541.263   CPU_WriteMem(356 bytes @ 0x20000400)
T6534 000:542.900 - 1.651ms returns 0x164
T6534 000:542.910 JLINK_HasError()
T6534 000:542.919 JLINK_WriteReg(R0, 0x08000C00)
T6534 000:542.926 - 0.007ms returns 0
T6534 000:542.933 JLINK_WriteReg(R1, 0x00000400)
T6534 000:542.939 - 0.006ms returns 0
T6534 000:542.945 JLINK_WriteReg(R2, 0x20000164)
T6534 000:542.951 - 0.006ms returns 0
T6534 000:542.957 JLINK_WriteReg(R3, 0x00000000)
T6534 000:542.963 - 0.005ms returns 0
T6534 000:542.969 JLINK_WriteReg(R4, 0x00000000)
T6534 000:542.978 - 0.008ms returns 0
T6534 000:542.986 JLINK_WriteReg(R5, 0x00000000)
T6534 000:542.992 - 0.005ms returns 0
T6534 000:542.998 JLINK_WriteReg(R6, 0x00000000)
T6534 000:543.004 - 0.005ms returns 0
T6534 000:543.010 JLINK_WriteReg(R7, 0x00000000)
T6534 000:543.016 - 0.005ms returns 0
T6534 000:543.023 JLINK_WriteReg(R8, 0x00000000)
T6534 000:543.028 - 0.005ms returns 0
T6534 000:543.035 JLINK_WriteReg(R9, 0x20000160)
T6534 000:543.041 - 0.005ms returns 0
T6534 000:543.047 JLINK_WriteReg(R10, 0x00000000)
T6534 000:543.053 - 0.005ms returns 0
T6534 000:543.059 JLINK_WriteReg(R11, 0x00000000)
T6534 000:543.065 - 0.005ms returns 0
T6534 000:543.071 JLINK_WriteReg(R12, 0x00000000)
T6534 000:543.077 - 0.005ms returns 0
T6534 000:543.084 JLINK_WriteReg(R13 (SP), 0x20001000)
T6534 000:543.090 - 0.006ms returns 0
T6534 000:543.096 JLINK_WriteReg(R14, 0x20000001)
T6534 000:543.102 - 0.005ms returns 0
T6534 000:543.109 JLINK_WriteReg(R15 (PC), 0x200000F4)
T6534 000:543.114 - 0.005ms returns 0
T6534 000:543.121 JLINK_WriteReg(XPSR, 0x01000000)
T6534 000:543.127 - 0.006ms returns 0
T6534 000:543.133 JLINK_WriteReg(MSP, 0x20001000)
T6534 000:543.139 - 0.005ms returns 0
T6534 000:543.145 JLINK_WriteReg(PSP, 0x20001000)
T6534 000:543.151 - 0.005ms returns 0
T6534 000:543.157 JLINK_WriteReg(CFBP, 0x00000000)
T6534 000:543.163 - 0.005ms returns 0
T6534 000:543.170 JLINK_SetBPEx(Addr = 0x20000000, Type = 0xFFFFFFF2)
T6534 000:543.177 - 0.007ms returns 0x00000008
T6534 000:543.183 JLINK_Go()
T6534 000:543.195   CPU_ReadMem(4 bytes @ 0xE0001000)
T6534 000:545.882 - 2.698ms
T6534 000:545.893 JLINK_IsHalted()
T6534 000:546.299 - 0.405ms returns FALSE
T6534 000:546.308 JLINK_HasError()
T6534 000:548.701 JLINK_IsHalted()
T6534 000:549.163 - 0.461ms returns FALSE
T6534 000:549.174 JLINK_HasError()
T6534 000:550.358 JLINK_IsHalted()
T6534 000:550.950 - 0.593ms returns FALSE
T6534 000:550.961 JLINK_HasError()
T6534 000:552.345 JLINK_IsHalted()
T6534 000:552.823 - 0.479ms returns FALSE
T6534 000:552.831 JLINK_HasError()
T6534 000:554.420 JLINK_IsHalted()
T6534 000:555.024 - 0.605ms returns FALSE
T6534 000:555.032 JLINK_HasError()
T6534 000:556.421 JLINK_IsHalted()
T6534 000:556.927 - 0.506ms returns FALSE
T6534 000:556.939 JLINK_HasError()
T6534 000:558.370 JLINK_IsHalted()
T6534 000:558.995 - 0.626ms returns FALSE
T6534 000:559.001 JLINK_HasError()
T6534 000:560.364 JLINK_IsHalted()
T6534 000:560.967 - 0.604ms returns FALSE
T6534 000:560.974 JLINK_HasError()
T6534 000:562.359 JLINK_IsHalted()
T6534 000:562.924 - 0.565ms returns FALSE
T6534 000:562.930 JLINK_HasError()
T6534 000:564.092 JLINK_IsHalted()
T6534 000:564.621 - 0.528ms returns FALSE
T6534 000:564.639 JLINK_HasError()
T6534 000:566.226 JLINK_IsHalted()
T6534 000:566.882 - 0.658ms returns FALSE
T6534 000:566.889 JLINK_HasError()
T6534 000:568.160 JLINK_IsHalted()
T6534 000:568.791 - 0.631ms returns FALSE
T6534 000:568.799 JLINK_HasError()
T6534 000:570.124 JLINK_IsHalted()
T6534 000:570.713 - 0.589ms returns FALSE
T6534 000:570.724 JLINK_HasError()
T6534 000:572.184 JLINK_IsHalted()
T6534 000:572.866 - 0.683ms returns FALSE
T6534 000:572.872 JLINK_HasError()
T6534 000:574.186 JLINK_IsHalted()
T6534 000:574.811 - 0.626ms returns FALSE
T6534 000:574.817 JLINK_HasError()
T6534 000:576.249 JLINK_IsHalted()
T6534 000:578.823   CPU_ReadMem(2 bytes @ 0x20000000)
T6534 000:579.260 - 3.009ms returns TRUE
T6534 000:579.270 JLINK_ReadReg(R15 (PC))
T6534 000:579.278 - 0.008ms returns 0x20000000
T6534 000:579.284 JLINK_ClrBPEx(BPHandle = 0x00000008)
T6534 000:579.290 - 0.006ms returns 0x00
T6534 000:579.296 JLINK_ReadReg(R0)
T6534 000:579.301 - 0.005ms returns 0x00000000
T6534 000:580.189 JLINK_WriteMem(0x20000164, 0x29C Bytes, ...)
T6534 000:580.203   Data:  09 20 FF F7 11 FF 08 20 FF F7 0E FF 14 20 FF F7 ...
T6534 000:580.221   CPU_WriteMem(668 bytes @ 0x20000164)
T6534 000:582.868 - 2.679ms returns 0x29C
T6534 000:582.883 JLINK_WriteMem(0x20000400, 0x164 Bytes, ...)
T6534 000:582.888   Data:  04 00 00 F0 91 F9 20 48 20 49 00 68 B0 FB F1 F0 ...
T6534 000:582.905   CPU_WriteMem(356 bytes @ 0x20000400)
T6534 000:584.700 - 1.816ms returns 0x164
T6534 000:584.713 JLINK_HasError()
T6534 000:584.720 JLINK_WriteReg(R0, 0x08001000)
T6534 000:584.726 - 0.006ms returns 0
T6534 000:584.731 JLINK_WriteReg(R1, 0x00000400)
T6534 000:584.735 - 0.004ms returns 0
T6534 000:584.740 JLINK_WriteReg(R2, 0x20000164)
T6534 000:584.744 - 0.004ms returns 0
T6534 000:584.749 JLINK_WriteReg(R3, 0x00000000)
T6534 000:584.753 - 0.004ms returns 0
T6534 000:584.758 JLINK_WriteReg(R4, 0x00000000)
T6534 000:584.762 - 0.004ms returns 0
T6534 000:584.767 JLINK_WriteReg(R5, 0x00000000)
T6534 000:584.771 - 0.004ms returns 0
T6534 000:584.775 JLINK_WriteReg(R6, 0x00000000)
T6534 000:584.780 - 0.004ms returns 0
T6534 000:584.784 JLINK_WriteReg(R7, 0x00000000)
T6534 000:584.788 - 0.004ms returns 0
T6534 000:584.793 JLINK_WriteReg(R8, 0x00000000)
T6534 000:584.797 - 0.004ms returns 0
T6534 000:584.802 JLINK_WriteReg(R9, 0x20000160)
T6534 000:584.806 - 0.004ms returns 0
T6534 000:584.811 JLINK_WriteReg(R10, 0x00000000)
T6534 000:584.815 - 0.004ms returns 0
T6534 000:584.820 JLINK_WriteReg(R11, 0x00000000)
T6534 000:584.824 - 0.004ms returns 0
T6534 000:584.829 JLINK_WriteReg(R12, 0x00000000)
T6534 000:584.833 - 0.004ms returns 0
T6534 000:584.838 JLINK_WriteReg(R13 (SP), 0x20001000)
T6534 000:584.842 - 0.004ms returns 0
T6534 000:584.847 JLINK_WriteReg(R14, 0x20000001)
T6534 000:584.851 - 0.004ms returns 0
T6534 000:584.856 JLINK_WriteReg(R15 (PC), 0x200000F4)
T6534 000:584.860 - 0.004ms returns 0
T6534 000:584.865 JLINK_WriteReg(XPSR, 0x01000000)
T6534 000:584.869 - 0.004ms returns 0
T6534 000:584.874 JLINK_WriteReg(MSP, 0x20001000)
T6534 000:584.878 - 0.004ms returns 0
T6534 000:584.883 JLINK_WriteReg(PSP, 0x20001000)
T6534 000:584.887 - 0.004ms returns 0
T6534 000:584.892 JLINK_WriteReg(CFBP, 0x00000000)
T6534 000:584.896 - 0.004ms returns 0
T6534 000:584.901 JLINK_SetBPEx(Addr = 0x20000000, Type = 0xFFFFFFF2)
T6534 000:584.906 - 0.005ms returns 0x00000009
T6534 000:584.915 JLINK_Go()
T6534 000:584.955   CPU_ReadMem(4 bytes @ 0xE0001000)
T6534 000:587.610 - 2.695ms
T6534 000:587.620 JLINK_IsHalted()
T6534 000:588.063 - 0.440ms returns FALSE
T6534 000:588.071 JLINK_HasError()
T6534 000:590.219 JLINK_IsHalted()
T6534 000:590.606 - 0.386ms returns FALSE
T6534 000:590.612 JLINK_HasError()
T6534 000:592.225 JLINK_IsHalted()
T6534 000:592.817 - 0.591ms returns FALSE
T6534 000:592.825 JLINK_HasError()
T6534 000:594.210 JLINK_IsHalted()
T6534 000:594.816 - 0.605ms returns FALSE
T6534 000:594.826 JLINK_HasError()
T6534 000:596.189 JLINK_IsHalted()
T6534 000:596.650 - 0.460ms returns FALSE
T6534 000:596.658 JLINK_HasError()
T6534 000:598.254 JLINK_IsHalted()
T6534 000:598.782 - 0.528ms returns FALSE
T6534 000:598.787 JLINK_HasError()
T6534 000:600.247 JLINK_IsHalted()
T6534 000:600.748 - 0.502ms returns FALSE
T6534 000:600.754 JLINK_HasError()
T6534 000:602.236 JLINK_IsHalted()
T6534 000:602.747 - 0.513ms returns FALSE
T6534 000:602.754 JLINK_HasError()
T6534 000:604.239 JLINK_IsHalted()
T6534 000:604.814 - 0.577ms returns FALSE
T6534 000:604.822 JLINK_HasError()
T6534 000:606.227 JLINK_IsHalted()
T6534 000:606.859 - 0.633ms returns FALSE
T6534 000:606.868 JLINK_HasError()
T6534 000:608.216 JLINK_IsHalted()
T6534 000:608.834 - 0.618ms returns FALSE
T6534 000:608.843 JLINK_HasError()
T6534 000:610.214 JLINK_IsHalted()
T6534 000:610.977 - 0.763ms returns FALSE
T6534 000:611.020 JLINK_HasError()
T6534 000:612.143 JLINK_IsHalted()
T6534 000:612.659 - 0.515ms returns FALSE
T6534 000:612.677 JLINK_HasError()
T6534 000:614.204 JLINK_IsHalted()
T6534 000:614.730 - 0.527ms returns FALSE
T6534 000:614.744 JLINK_HasError()
T6534 000:616.194 JLINK_IsHalted()
T6534 000:616.646 - 0.451ms returns FALSE
T6534 000:616.659 JLINK_HasError()
T6534 000:618.169 JLINK_IsHalted()
T6534 000:620.869   CPU_ReadMem(2 bytes @ 0x20000000)
T6534 000:621.353 - 3.183ms returns TRUE
T6534 000:621.370 JLINK_ReadReg(R15 (PC))
T6534 000:621.378 - 0.008ms returns 0x20000000
T6534 000:621.383 JLINK_ClrBPEx(BPHandle = 0x00000009)
T6534 000:621.388 - 0.004ms returns 0x00
T6534 000:621.393 JLINK_ReadReg(R0)
T6534 000:621.397 - 0.004ms returns 0x00000000
T6534 000:621.771 JLINK_WriteMem(0x20000164, 0x29C Bytes, ...)
T6534 000:621.778   Data:  16 40 18 21 8D F8 17 10 39 4E 05 A9 30 46 00 F0 ...
T6534 000:621.790   CPU_WriteMem(668 bytes @ 0x20000164)
T6534 000:624.510 - 2.738ms returns 0x29C
T6534 000:624.524 JLINK_WriteMem(0x20000400, 0x164 Bytes, ...)
T6534 000:624.529   Data:  BD E8 10 40 00 21 00 F0 28 BA 10 BD 10 B5 01 21 ...
T6534 000:624.540   CPU_WriteMem(356 bytes @ 0x20000400)
T6534 000:626.263 - 1.738ms returns 0x164
T6534 000:626.284 JLINK_HasError()
T6534 000:626.293 JLINK_WriteReg(R0, 0x08001400)
T6534 000:626.302 - 0.008ms returns 0
T6534 000:626.309 JLINK_WriteReg(R1, 0x00000400)
T6534 000:626.316 - 0.007ms returns 0
T6534 000:626.325 JLINK_WriteReg(R2, 0x20000164)
T6534 000:626.332 - 0.007ms returns 0
T6534 000:626.341 JLINK_WriteReg(R3, 0x00000000)
T6534 000:626.348 - 0.007ms returns 0
T6534 000:626.357 JLINK_WriteReg(R4, 0x00000000)
T6534 000:626.364 - 0.007ms returns 0
T6534 000:626.390 JLINK_WriteReg(R5, 0x00000000)
T6534 000:626.399 - 0.008ms returns 0
T6534 000:626.405 JLINK_WriteReg(R6, 0x00000000)
T6534 000:626.410 - 0.005ms returns 0
T6534 000:626.416 JLINK_WriteReg(R7, 0x00000000)
T6534 000:626.420 - 0.005ms returns 0
T6534 000:626.426 JLINK_WriteReg(R8, 0x00000000)
T6534 000:626.431 - 0.005ms returns 0
T6534 000:626.437 JLINK_WriteReg(R9, 0x20000160)
T6534 000:626.441 - 0.005ms returns 0
T6534 000:626.447 JLINK_WriteReg(R10, 0x00000000)
T6534 000:626.452 - 0.005ms returns 0
T6534 000:626.457 JLINK_WriteReg(R11, 0x00000000)
T6534 000:626.462 - 0.004ms returns 0
T6534 000:626.468 JLINK_WriteReg(R12, 0x00000000)
T6534 000:626.473 - 0.005ms returns 0
T6534 000:626.478 JLINK_WriteReg(R13 (SP), 0x20001000)
T6534 000:626.484 - 0.005ms returns 0
T6534 000:626.489 JLINK_WriteReg(R14, 0x20000001)
T6534 000:626.494 - 0.005ms returns 0
T6534 000:626.500 JLINK_WriteReg(R15 (PC), 0x200000F4)
T6534 000:626.505 - 0.005ms returns 0
T6534 000:626.511 JLINK_WriteReg(XPSR, 0x01000000)
T6534 000:626.516 - 0.005ms returns 0
T6534 000:626.521 JLINK_WriteReg(MSP, 0x20001000)
T6534 000:626.526 - 0.004ms returns 0
T6534 000:626.532 JLINK_WriteReg(PSP, 0x20001000)
T6534 000:626.537 - 0.004ms returns 0
T6534 000:626.542 JLINK_WriteReg(CFBP, 0x00000000)
T6534 000:626.547 - 0.005ms returns 0
T6534 000:626.553 JLINK_SetBPEx(Addr = 0x20000000, Type = 0xFFFFFFF2)
T6534 000:626.560 - 0.007ms returns 0x0000000A
T6534 000:626.566 JLINK_Go()
T6534 000:626.580   CPU_ReadMem(4 bytes @ 0xE0001000)
T6534 000:629.389 - 2.822ms
T6534 000:629.404 JLINK_IsHalted()
T6534 000:629.823 - 0.419ms returns FALSE
T6534 000:629.830 JLINK_HasError()
T6534 000:630.980 JLINK_IsHalted()
T6534 000:631.405 - 0.424ms returns FALSE
T6534 000:631.414 JLINK_HasError()
T6534 000:632.932 JLINK_IsHalted()
T6534 000:633.456 - 0.523ms returns FALSE
T6534 000:633.464 JLINK_HasError()
T6534 000:634.842 JLINK_IsHalted()
T6534 000:635.316 - 0.473ms returns FALSE
T6534 000:635.322 JLINK_HasError()
T6534 000:636.959 JLINK_IsHalted()
T6534 000:637.394 - 0.440ms returns FALSE
T6534 000:637.401 JLINK_HasError()
T6534 000:638.929 JLINK_IsHalted()
T6534 000:639.393 - 0.467ms returns FALSE
T6534 000:639.402 JLINK_HasError()
T6534 000:640.916 JLINK_IsHalted()
T6534 000:641.441 - 0.525ms returns FALSE
T6534 000:641.473 JLINK_HasError()
T6534 000:642.962 JLINK_IsHalted()
T6534 000:643.552 - 0.591ms returns FALSE
T6534 000:643.571 JLINK_HasError()
T6534 000:644.889 JLINK_IsHalted()
T6534 000:645.316 - 0.428ms returns FALSE
T6534 000:645.322 JLINK_HasError()
T6534 000:646.908 JLINK_IsHalted()
T6534 000:647.380 - 0.474ms returns FALSE
T6534 000:647.387 JLINK_HasError()
T6534 000:648.887 JLINK_IsHalted()
T6534 000:649.401 - 0.513ms returns FALSE
T6534 000:649.408 JLINK_HasError()
T6534 000:650.877 JLINK_IsHalted()
T6534 000:651.336 - 0.459ms returns FALSE
T6534 000:651.343 JLINK_HasError()
T6534 000:652.889 JLINK_IsHalted()
T6534 000:653.631 - 0.743ms returns FALSE
T6534 000:653.652 JLINK_HasError()
T6534 000:654.989 JLINK_IsHalted()
T6534 000:655.432 - 0.443ms returns FALSE
T6534 000:655.444 JLINK_HasError()
T6534 000:656.875 JLINK_IsHalted()
T6534 000:657.350 - 0.477ms returns FALSE
T6534 000:657.366 JLINK_HasError()
T6534 000:659.028 JLINK_IsHalted()
T6534 000:659.503 - 0.489ms returns FALSE
T6534 000:659.509 JLINK_HasError()
T6534 000:660.998 JLINK_IsHalted()
T6534 000:663.244   CPU_ReadMem(2 bytes @ 0x20000000)
T6534 000:663.669 - 2.672ms returns TRUE
T6534 000:663.691 JLINK_ReadReg(R15 (PC))
T6534 000:663.707 - 0.016ms returns 0x20000000
T6534 000:663.722 JLINK_ClrBPEx(BPHandle = 0x0000000A)
T6534 000:663.735 - 0.013ms returns 0x00
T6534 000:663.748 JLINK_ReadReg(R0)
T6534 000:663.753 - 0.004ms returns 0x00000000
T6534 000:664.123 JLINK_WriteMem(0x20000164, 0x29C Bytes, ...)
T6534 000:664.131   Data:  07 D0 C2 02 0C D5 03 22 B2 40 93 43 43 F0 70 62 ...
T6534 000:664.143   CPU_WriteMem(668 bytes @ 0x20000164)
T6534 000:666.804 - 2.679ms returns 0x29C
T6534 000:666.827 JLINK_WriteMem(0x20000400, 0x164 Bytes, ...)
T6534 000:666.840   Data:  35 4B 59 43 01 60 C7 E7 33 4B 59 43 01 60 C3 E7 ...
T6534 000:666.863   CPU_WriteMem(356 bytes @ 0x20000400)
T6534 000:668.625 - 1.798ms returns 0x164
T6534 000:668.650 JLINK_HasError()
T6534 000:668.658 JLINK_WriteReg(R0, 0x08001800)
T6534 000:668.664 - 0.006ms returns 0
T6534 000:668.669 JLINK_WriteReg(R1, 0x00000400)
T6534 000:668.673 - 0.004ms returns 0
T6534 000:668.678 JLINK_WriteReg(R2, 0x20000164)
T6534 000:668.682 - 0.004ms returns 0
T6534 000:668.687 JLINK_WriteReg(R3, 0x00000000)
T6534 000:668.691 - 0.004ms returns 0
T6534 000:668.696 JLINK_WriteReg(R4, 0x00000000)
